time	V(min_es)	V(n001)	Ix(D1:-)
0.000000000000000e+000	4.058707e+000	4.066294e+000	4.127932e-007
9.765624960978488e-015	4.058707e+000	4.066294e+000	4.127934e-007
1.953124992195698e-014	4.058707e+000	4.066294e+000	4.127935e-007
1.000000000000000e-008	4.058707e+000	4.066294e+000	4.127891e-007
1.000000010000000e-008	4.058707e+000	4.066294e+000	4.130346e-007
1.000000039261000e-008	4.058707e+000	4.066294e+000	4.135532e-007
1.000000045591252e-008	4.058707e+000	4.070688e+000	8.770857e-003
1.000000050142285e-008	4.058707e+000	4.077713e+000	2.279184e-002
1.000000054484066e-008	4.058707e+000	4.081401e+000	3.015335e-002
1.000008021377830e-008	4.058774e+000	4.082671e+000	3.255199e-002
1.000015988271593e-008	4.058818e+000	4.083948e+000	3.495028e-002
1.000023955165356e-008	4.058840e+000	4.085232e+000	3.734822e-002
1.000031922059120e-008	4.058839e+000	4.086522e+000	3.974579e-002
1.000039888952883e-008	4.058816e+000	4.087820e+000	4.214302e-002
1.000047855846646e-008	4.058771e+000	4.089123e+000	4.453988e-002
1.000055822740409e-008	4.058703e+000	4.090434e+000	4.693639e-002
1.000111548882073e-008	4.058717e+000	4.099783e+000	6.369045e-002
1.000223001165399e-008	4.058747e+000	4.119445e+000	9.714971e-002
1.000445905732051e-008	4.058740e+000	4.162608e+000	1.638729e-001
1.000891714865356e-008	4.058772e+000	4.261874e+000	2.966625e-001
1.001520033081915e-008	4.058807e+000	4.429121e+000	4.824389e-001
1.002322357614025e-008	4.058871e+000	4.697330e+000	7.169862e-001
1.003660370081681e-008	4.058977e+000	5.209182e+000	1.101946e+000
1.005424696846261e-008	4.059112e+000	5.860022e+000	1.601874e+000
1.005802029671935e-008	4.059129e+000	5.970511e+000	1.707186e+000
1.006556695323282e-008	4.059151e+000	6.140422e+000	1.914647e+000
1.008066026625976e-008	4.059211e+000	6.439693e+000	2.322283e+000
1.010570910138750e-008	4.059298e+000	6.854213e+000	2.975909e+000
1.015477635186896e-008	4.059445e+000	7.529250e+000	4.194049e+000
1.020284441634743e-008	4.059576e+000	8.096074e+000	5.300852e+000
1.028362261689810e-008	4.059776e+000	8.920763e+000	6.964432e+000
1.039568273108679e-008	4.060026e+000	9.866933e+000	8.882440e+000
1.061980295946416e-008	4.060448e+000	1.122533e+001	1.163955e+001
1.096064326833694e-008	4.060954e+000	1.242511e+001	1.406615e+001
1.129354877400261e-008	4.061314e+000	1.281422e+001	1.483174e+001
1.167136146457221e-008	4.061595e+000	1.259890e+001	1.435198e+001
1.204845172907969e-008	4.061789e+000	1.201989e+001	1.312852e+001
1.247957493635865e-008	4.061946e+000	1.118863e+001	1.138916e+001
1.291993329260087e-008	4.062076e+000	1.036535e+001	9.675274e+000
1.342108129629564e-008	4.062215e+000	9.574824e+000	8.036357e+000
1.376991072637419e-008	4.062318e+000	9.151282e+000	7.161667e+000
1.403076613679363e-008	4.062403e+000	8.921114e+000	6.688268e+000
1.426410004695959e-008	4.062485e+000	8.774101e+000	6.387187e+000
1.450508212068733e-008	4.062577e+000	8.673550e+000	6.182515e+000
1.481012709509563e-008	4.062702e+000	8.601548e+000	6.037752e+000
1.505076608498776e-008	4.062807e+000	8.580868e+000	5.998098e+000
1.526013373383345e-008	4.062903e+000	8.588373e+000	6.016129e+000
1.547580790425671e-008	4.063006e+000	8.616235e+000	6.076088e+000
1.577072697407878e-008	4.063153e+000	8.676722e+000	6.204013e+000
1.643808849968655e-008	4.063506e+000	8.869960e+000	6.608687e+000
1.761702671815455e-008	4.064173e+000	9.259458e+000	7.419707e+000
1.857868565529482e-008	4.064740e+000	9.533361e+000	7.988873e+000
1.949953753879251e-008	4.065294e+000	9.739820e+000	8.417714e+000
2.031428972572990e-008	4.065791e+000	9.872520e+000	8.693439e+000
2.112904191266729e-008	4.066291e+000	9.986766e+000	8.930812e+000
2.194379409960468e-008	4.066794e+000	1.008256e+001	9.129831e+000
2.275854628654207e-008	4.067298e+000	1.015990e+001	9.290497e+000
2.357329847347946e-008	4.067806e+000	1.021878e+001	9.412811e+000
2.438805066041684e-008	4.068316e+000	1.025921e+001	9.496771e+000
2.520280284735423e-008	4.068829e+000	1.028119e+001	9.542378e+000
2.653012690462939e-008	4.069663e+000	1.029959e+001	9.580304e+000
2.785745096190454e-008	4.070489e+000	1.030162e+001	9.584113e+000
2.918477501917969e-008	4.071308e+000	1.028725e+001	9.553807e+000
3.051209907645484e-008	4.072119e+000	1.025650e+001	9.489384e+000
3.183942313373000e-008	4.072923e+000	1.020936e+001	9.390845e+000
3.316674719100515e-008	4.073718e+000	1.014583e+001	9.258190e+000
3.449407124828030e-008	4.074507e+000	1.006592e+001	9.091418e+000
3.672621410542315e-008	4.075801e+000	9.920033e+000	8.787076e+000
3.895835696256600e-008	4.077058e+000	9.770404e+000	8.475011e+000
4.119049981970885e-008	4.078278e+000	9.617031e+000	8.155222e+000
4.342264267685170e-008	4.079462e+000	9.459912e+000	7.827709e+000
4.565478553399455e-008	4.080609e+000	9.299049e+000	7.492474e+000
4.788692839113741e-008	4.081719e+000	9.134441e+000	7.149514e+000
5.011907124828025e-008	4.082793e+000	8.966087e+000	6.798831e+000
5.514139267685167e-008	4.085047e+000	8.619855e+000	6.077983e+000
6.016371410542309e-008	4.087174e+000	8.301040e+000	5.414516e+000
6.518603553399450e-008	4.089173e+000	8.009644e+000	4.808428e+000
7.020835696256592e-008	4.091045e+000	7.745666e+000	4.259721e+000
7.523067839113733e-008	4.092789e+000	7.509106e+000	3.768394e+000
8.025299981970874e-008	4.094406e+000	7.299965e+000	3.334447e+000
8.527532124828015e-008	4.095895e+000	7.118241e+000	2.957880e+000
8.904206231970872e-008	4.096973e+000	6.995018e+000	2.702749e+000
9.280880339113728e-008	4.098016e+000	6.880494e+000	2.465807e+000
9.657554446256585e-008	4.099024e+000	6.774669e+000	2.247054e+000
1.003422855339944e-007	4.099997e+000	6.677544e+000	2.046490e+000
1.041090266054230e-007	4.100935e+000	6.589118e+000	1.864116e+000
1.078757676768515e-007	4.101839e+000	6.509392e+000	1.699931e+000
1.116425087482801e-007	4.102707e+000	6.438365e+000	1.553935e+000
1.152697408911372e-007	4.103522e+000	6.375119e+000	1.424115e+000
1.188969730339944e-007	4.104320e+000	6.316196e+000	1.303331e+000
1.225242051768515e-007	4.105100e+000	6.261595e+000	1.191583e+000
1.261514373197086e-007	4.105863e+000	6.211315e+000	1.088870e+000
1.297786694625658e-007	4.106609e+000	6.165357e+000	9.951924e-001
1.334059016054229e-007	4.107336e+000	6.123721e+000	9.105505e-001
1.370331337482800e-007	4.108047e+000	6.086407e+000	8.349442e-001
1.406603658911372e-007	4.108745e+000	6.051856e+000	7.651162e-001
1.442875980339943e-007	4.109434e+000	6.019632e+000	7.001509e-001
1.479148301768514e-007	4.110114e+000	5.989733e+000	6.400483e-001
1.515420623197085e-007	4.110783e+000	5.962160e+000	5.848083e-001
1.551692944625657e-007	4.111443e+000	5.936912e+000	5.344309e-001
1.587965266054228e-007	4.112094e+000	5.913990e+000	4.889162e-001
1.624237587482799e-007	4.112734e+000	5.893394e+000	4.482642e-001
1.660509908911371e-007	4.113368e+000	5.874283e+000	4.107168e-001
1.696782230339942e-007	4.113997e+000	5.856423e+000	3.757844e-001
1.733054551768513e-007	4.114620e+000	5.839813e+000	3.434669e-001
1.769326873197085e-007	4.115238e+000	5.824453e+000	3.137642e-001
1.805599194625656e-007	4.115850e+000	5.810343e+000	2.866765e-001
1.841871516054228e-007	4.116457e+000	5.797484e+000	2.622036e-001
1.878143837482799e-007	4.117058e+000	5.785875e+000	2.403457e-001
1.914416158911370e-007	4.117655e+000	5.775065e+000	2.201570e-001
1.950688480339942e-007	4.118249e+000	5.764926e+000	2.013745e-001
1.986960801768513e-007	4.118840e+000	5.755459e+000	1.839979e-001
2.023233123197084e-007	4.119427e+000	5.746663e+000	1.680275e-001
2.059505444625655e-007	4.120011e+000	5.738540e+000	1.534630e-001
2.095777766054227e-007	4.120592e+000	5.731087e+000	1.403047e-001
2.132050087482798e-007	4.121170e+000	5.724307e+000	1.285524e-001
2.168322408911369e-007	4.121746e+000	5.717955e+000	1.176977e-001
2.204594730339941e-007	4.122319e+000	5.711963e+000	1.075990e-001
2.240867051768512e-007	4.122891e+000	5.706331e+000	9.825638e-002
2.277139373197083e-007	4.123460e+000	5.701059e+000	8.966980e-002
2.313411694625655e-007	4.124028e+000	5.696147e+000	8.183927e-002
2.349684016054226e-007	4.124593e+000	5.691596e+000	7.476478e-002
2.385956337482797e-007	4.125156e+000	5.687405e+000	6.844635e-002
2.422228658911370e-007	4.125718e+000	5.683442e+000	6.261055e-002
2.458500980339942e-007	4.126278e+000	5.679671e+000	5.718128e-002
2.494773301768514e-007	4.126837e+000	5.676091e+000	5.215855e-002
2.531045623197087e-007	4.127395e+000	5.672703e+000	4.754236e-002
2.567317944625659e-007	4.127951e+000	5.669506e+000	4.333270e-002
2.603590266054231e-007	4.128506e+000	5.666501e+000	3.952957e-002
2.639862587482803e-007	4.129059e+000	5.663687e+000	3.613298e-002
2.676134908911376e-007	4.129612e+000	5.660994e+000	3.299592e-002
2.712407230339948e-007	4.130163e+000	5.658399e+000	3.007746e-002
2.748679551768520e-007	4.130713e+000	5.655903e+000	2.737760e-002
2.784951873197093e-007	4.131262e+000	5.653507e+000	2.489636e-002
2.821224194625665e-007	4.131810e+000	5.651208e+000	2.263372e-002
2.857496516054237e-007	4.132357e+000	5.649009e+000	2.058969e-002
2.893768837482810e-007	4.132903e+000	5.646908e+000	1.876426e-002
2.928646069625668e-007	4.133427e+000	5.644944e+000	1.713875e-002
2.963523301768526e-007	4.133951e+000	5.643021e+000	1.562316e-002
2.998400533911384e-007	4.134473e+000	5.641141e+000	1.421749e-002
3.033277766054241e-007	4.134995e+000	5.639302e+000	1.292176e-002
3.068154998197100e-007	4.135516e+000	5.637505e+000	1.173595e-002
3.103032230339958e-007	4.136036e+000	5.635749e+000	1.066007e-002
3.137909462482816e-007	4.136555e+000	5.634036e+000	9.694121e-003
3.171391605339959e-007	4.137053e+000	5.632412e+000	8.833410e-003
3.204873748197103e-007	4.137550e+000	5.630793e+000	8.029165e-003
3.238355891054246e-007	4.138047e+000	5.629182e+000	7.281385e-003
3.271838033911390e-007	4.138542e+000	5.627576e+000	6.590069e-003
3.305320176768534e-007	4.139037e+000	5.625976e+000	5.955219e-003
3.338802319625678e-007	4.139532e+000	5.624383e+000	5.376834e-003
3.372284462482821e-007	4.140025e+000	5.622797e+000	4.854913e-003
3.404371516054250e-007	4.140497e+000	5.621272e+000	4.389658e-003
3.436458569625680e-007	4.140969e+000	5.619717e+000	3.954080e-003
3.468545623197109e-007	4.141440e+000	5.618131e+000	3.548181e-003
3.500632676768539e-007	4.141911e+000	5.616515e+000	3.171960e-003
3.532719730339968e-007	4.142380e+000	5.614868e+000	2.825417e-003
3.564806783911398e-007	4.142849e+000	5.613191e+000	2.508553e-003
3.596893837482827e-007	4.143318e+000	5.611483e+000	2.221367e-003
3.626190712482827e-007	4.143745e+000	5.609898e+000	1.976360e-003
3.655487587482828e-007	4.144171e+000	5.608210e+000	1.746245e-003
3.684784462482829e-007	4.144597e+000	5.606416e+000	1.531024e-003
3.714081337482830e-007	4.145022e+000	5.604517e+000	1.330696e-003
3.743378212482830e-007	4.145446e+000	5.602514e+000	1.145260e-003
3.772675087482831e-007	4.145869e+000	5.600406e+000	9.747178e-004
3.801971962482832e-007	4.146292e+000	5.598193e+000	8.190683e-004
3.831268837482832e-007	4.146714e+000	5.595711e+000	6.730190e-004
3.860565712482833e-007	4.147135e+000	5.592957e+000	5.383237e-004
3.880096962482834e-007	4.147415e+000	5.590928e+000	4.546043e-004
3.899628212482834e-007	4.147695e+000	5.588709e+000	3.756319e-004
3.919159462482835e-007	4.147974e+000	5.586257e+000	3.013521e-004
3.938690712482835e-007	4.148252e+000	5.583516e+000	2.317593e-004
3.948456337482835e-007	4.148391e+000	5.582016e+000	1.987348e-004
3.958221962482836e-007	4.148530e+000	5.580417e+000	1.669075e-004
3.967987587482836e-007	4.148668e+000	5.578705e+000	1.362952e-004
3.977753212482836e-007	4.148807e+000	5.576869e+000	1.069205e-004
3.987518837482836e-007	4.148944e+000	5.574893e+000	7.881071e-005
3.997284462482836e-007	4.149082e+000	5.572763e+000	5.199766e-005
4.007050087482837e-007	4.149220e+000	5.570460e+000	2.651678e-005
4.016815712482837e-007	4.149357e+000	5.567968e+000	2.405842e-006
4.026581337482837e-007	4.149494e+000	5.565269e+000	-2.029705e-005
4.036346962482837e-007	4.149631e+000	5.562345e+000	-4.155602e-005
4.046112587482838e-007	4.149767e+000	5.559179e+000	-6.134062e-005
4.055878212482838e-007	4.149903e+000	5.555760e+000	-7.962922e-005
4.065643837482838e-007	4.150039e+000	5.552076e+000	-9.641235e-005
4.075409462482838e-007	4.150174e+000	5.548121e+000	-1.116952e-004
4.085175087482839e-007	4.150309e+000	5.543897e+000	-1.254993e-004
4.094940712482839e-007	4.150443e+000	5.539405e+000	-1.378623e-004
4.104706337482839e-007	4.150576e+000	5.534658e+000	-1.488365e-004
4.114471962482839e-007	4.150709e+000	5.529669e+000	-1.584862e-004
4.124237587482840e-007	4.150842e+000	5.524457e+000	-1.668846e-004
4.134003212482840e-007	4.150973e+000	5.519043e+000	-1.741102e-004
4.143768837482840e-007	4.151105e+000	5.513450e+000	-1.802439e-004
4.153534462482840e-007	4.151236e+000	5.507703e+000	-1.853669e-004
4.173065712482841e-007	4.151495e+000	5.495843e+000	-1.928996e-004
4.192596962482841e-007	4.151752e+000	5.483646e+000	-1.973248e-004
4.212128212482842e-007	4.152007e+000	5.471277e+000	-1.992200e-004
4.241425087482842e-007	4.152385e+000	5.452687e+000	-1.984743e-004
4.258166158911414e-007	4.152598e+000	5.442119e+000	-1.962271e-004
4.274907230339986e-007	4.152809e+000	5.431723e+000	-1.937384e-004
4.291648301768558e-007	4.153019e+000	5.421501e+000	-1.910083e-004
4.308389373197130e-007	4.153227e+000	5.411450e+000	-1.880367e-004
4.325130444625702e-007	4.153434e+000	5.401572e+000	-1.848238e-004
4.341871516054273e-007	4.153638e+000	5.391867e+000	-1.813693e-004
4.358612587482845e-007	4.153841e+000	5.382334e+000	-1.776734e-004
4.390699641054274e-007	4.154226e+000	5.364790e+000	-1.719160e-004
4.422786694625704e-007	4.154605e+000	5.347632e+000	-1.668390e-004
4.454873748197133e-007	4.154979e+000	5.330861e+000	-1.624425e-004
4.486960801768563e-007	4.155348e+000	5.314477e+000	-1.587264e-004
4.519047855339992e-007	4.155711e+000	5.298479e+000	-1.556908e-004
4.551134908911422e-007	4.156070e+000	5.282868e+000	-1.533356e-004
4.583221962482851e-007	4.156423e+000	5.267644e+000	-1.516609e-004
4.687853658911425e-007	4.157535e+000	5.218886e+000	-1.459267e-004
4.792485355339998e-007	4.158601e+000	5.172081e+000	-1.402741e-004
4.897117051768573e-007	4.159623e+000	5.127229e+000	-1.347030e-004
5.001748748197147e-007	4.160598e+000	5.084330e+000	-1.292136e-004
5.106380444625721e-007	4.161529e+000	5.043385e+000	-1.238056e-004
5.211012141054294e-007	4.162413e+000	5.004393e+000	-1.184793e-004
5.315643837482868e-007	4.163252e+000	4.967354e+000	-1.132344e-004
5.519326873197158e-007	4.164762e+000	4.900832e+000	-1.041178e-004
5.723009908911449e-007	4.166164e+000	4.839006e+000	-9.559930e-005
5.926692944625741e-007	4.167459e+000	4.781877e+000	-8.767891e-005
6.130375980340031e-007	4.168646e+000	4.729444e+000	-8.035665e-005
6.334059016054321e-007	4.169726e+000	4.681707e+000	-7.363251e-005
6.537742051768612e-007	4.170698e+000	4.638666e+000	-6.750649e-005
6.741425087482903e-007	4.171563e+000	4.600322e+000	-6.197860e-005
6.946503212482908e-007	4.172365e+000	4.564702e+000	-5.683602e-005
7.151581337482913e-007	4.173108e+000	4.531600e+000	-5.204285e-005
7.356659462482918e-007	4.173794e+000	4.501017e+000	-4.759911e-005
7.561737587482923e-007	4.174422e+000	4.472953e+000	-4.350477e-005
7.766815712482928e-007	4.174993e+000	4.447408e+000	-3.975986e-005
7.971893837482934e-007	4.175505e+000	4.424382e+000	-3.636436e-005
8.176971962482938e-007	4.175960e+000	4.403874e+000	-3.331828e-005
8.309505444625798e-007	4.176237e+000	4.391336e+000	-3.145710e-005
8.442038926768659e-007	4.176500e+000	4.379419e+000	-2.968567e-005
8.574572408911519e-007	4.176748e+000	4.368122e+000	-2.800400e-005
8.707105891054379e-007	4.176982e+000	4.357445e+000	-2.641209e-005
8.839639373197240e-007	4.177202e+000	4.347388e+000	-2.490993e-005
8.972172855340100e-007	4.177408e+000	4.337951e+000	-2.349754e-005
9.104706337482960e-007	4.177599e+000	4.329134e+000	-2.217490e-005
9.114471962482960e-007	4.177613e+000	4.328499e+000	-2.207952e-005
9.238634908911528e-007	4.177782e+000	4.320699e+000	-2.090828e-005
9.362797855340096e-007	4.177942e+000	4.313263e+000	-1.979087e-005
9.486960801768663e-007	4.178094e+000	4.306192e+000	-1.872729e-005
9.611123748197231e-007	4.178237e+000	4.299485e+000	-1.771755e-005
9.735286694625799e-007	4.178372e+000	4.293143e+000	-1.676164e-005
9.859449641054366e-007	4.178498e+000	4.287165e+000	-1.585956e-005
9.983612587482934e-007	4.178617e+000	4.281552e+000	-1.501132e-005
9.993378212482933e-007	4.178626e+000	4.281120e+000	-1.494596e-005
1.000000000000000e-006	4.178634e+000	4.280828e+000	-1.489954e-005
